
T3E7C 000:288 SEGGER J-Link V4.98e Log File (0001ms, 0264ms total)
T3E7C 000:288 DLL Compiled: May  5 2015 11:00:52 (0001ms, 0264ms total)
T3E7C 000:288 Logging started @ 2017-10-03 13:52 (0001ms, 0264ms total)
T3E7C 000:289 JLINK_SetWarnOutHandler(...) (0000ms, 0264ms total)
T3E7C 000:289 JLINK_OpenEx(...)
Firmware: J-Link ARM V8 compiled Nov 28 2014 13:44:46
Hardware: V8.00
S/N: 304423265
Feature(s): RDI,FlashDL,FlashBP,JFlash,GDBFULL  returns O.K. (0268ms, 0532ms total)
T3E7C 000:557 JLINK_SetErrorOutHandler(...) (0000ms, 0532ms total)
T3E7C 000:557 JLINK_ExecCommand("ProjectFile = "F:\HauptOrdner\dasLaaboratorium\STM_AutoPilot\STM32\STMGenerated\SwarmSJTU\Lichtgestalt\MDK-ARM\JLinkSettings.ini"", ...)Device "UNSPECIFIED" selected.  returns 0x00 (0003ms, 0535ms total)
T3E7C 000:560 JLINK_ExecCommand("Device = STM32F405RGTx", ...)Device "UNSPECIFIED" selected.  returns 0x00 (0001ms, 0536ms total)
T3E7C 000:561 JLINK_ExecCommand("DisableConnectionTimeout", ...)  returns 0x01 (0000ms, 0536ms total)
T3E7C 000:561 JLINK_GetHardwareVersion()  returns 0x13880 (0000ms, 0536ms total)
T3E7C 000:561 JLINK_GetDLLVersion()  returns 49805 (0000ms, 0536ms total)
T3E7C 000:561 JLINK_GetFirmwareString(...) (0000ms, 0536ms total)
T3E7C 000:562 JLINK_GetDLLVersion()  returns 49805 (0000ms, 0536ms total)
T3E7C 000:562 JLINK_GetCompileDateTime() (0001ms, 0537ms total)
T3E7C 000:563 JLINK_GetFirmwareString(...) (0000ms, 0537ms total)
T3E7C 000:563 JLINK_GetHardwareVersion()  returns 0x13880 (0000ms, 0537ms total)
T3E7C 000:565 JLINK_TIF_Select(JLINKARM_TIF_JTAG)  returns 0x00 (0002ms, 0539ms total)
T3E7C 000:567 JLINK_SetSpeed(5000) (0000ms, 0539ms total)
T3E7C 000:567 JLINK_GetIdData(...) >0x2F8 JTAG>TotalIRLen = 9, IRPrint = 0x0011 >0x30 JTAG> >0x210 JTAG> >0x70 JTAG> >0x40 JTAG> >0x40 JTAG> >0x40 JTAG> >0x50 JTAG> >0x80 JTAG> >0x40 JTAG> >0x30 JTAG> >0x40 JTAG> >0x40 JTAG> >0x30 JTAG> >0x40 JTAG> >0x50 JTAG>Found Cortex-M4 r0p1, Little endian. -- CPU_WriteMem(4 bytes @ 0xE0002000) -- CPU_ReadMem(4 bytes @ 0xE000EDF0) -- CPU_ReadMem(4 bytes @ 0xE0002000)FPUnit: 6 code (BP) slots and 2 literal slots -- CPU_ReadMem(4 bytes @ 0xE000EDFC)
 -- CPU_ReadMem(4 bytes @ 0xE0001000) -- CPU_WriteMem(4 bytes @ 0xE0001000) -- CPU_ReadMem(4 bytes @ 0xE000ED88) -- CPU_WriteMem(4 bytes @ 0xE000ED88) -- CPU_ReadMem(4 bytes @ 0xE000ED88) -- CPU_WriteMem(4 bytes @ 0xE000ED88)CoreSight components:ROMTbl 0 @ E00FF000 -- CPU_ReadMem(16 bytes @ 0xE00FF000) -- CPU_ReadMem(16 bytes @ 0xE000EFF0) -- CPU_ReadMem(16 bytes @ 0xE000EFE0)ROMTbl 0 [0]: FFF0F000, CID: B105E00D, PID: 000BB00C SCS -- CPU_ReadMem(16 bytes @ 0xE0001FF0)
 -- CPU_ReadMem(16 bytes @ 0xE0001FE0)ROMTbl 0 [1]: FFF02000, CID: B105E00D, PID: 003BB002 DWT -- CPU_ReadMem(16 bytes @ 0xE0002FF0) -- CPU_ReadMem(16 bytes @ 0xE0002FE0)ROMTbl 0 [2]: FFF03000, CID: B105E00D, PID: 002BB003 FPB -- CPU_ReadMem(16 bytes @ 0xE0000FF0) -- CPU_ReadMem(16 bytes @ 0xE0000FE0)ROMTbl 0 [3]: FFF01000, CID: B105E00D, PID: 003BB001 ITM -- CPU_ReadMem(16 bytes @ 0xE00FF010) -- CPU_ReadMem(16 bytes @ 0xE0040FF0) -- CPU_ReadMem(16 bytes @ 0xE0040FE0)
ROMTbl 0 [4]: FFF41000, CID: B105900D, PID: 000BB9A1 TPIU -- CPU_ReadMem(16 bytes @ 0xE0041FF0) -- CPU_ReadMem(16 bytes @ 0xE0041FE0)ROMTbl 0 [5]: FFF42000, CID: B105900D, PID: 000BB925 ETM ScanLen=9 NumDevices=2 aId[0]=0x4BA00477 aIrRead[0]=0 aScanLen[0]=0 aScanRead[0]=0 (0037ms, 0576ms total)
T3E7C 000:604 JLINK_JTAG_GetDeviceID(DeviceIndex = 0)  returns 0x4BA00477 (0000ms, 0576ms total)
T3E7C 000:604 JLINK_JTAG_GetDeviceInfo(DeviceIndex = 0)  returns 0x00 (0000ms, 0576ms total)
T3E7C 000:604 JLINK_JTAG_GetDeviceID(DeviceIndex = 1)  returns 0x6413041 (0000ms, 0576ms total)
T3E7C 000:604 JLINK_JTAG_GetDeviceInfo(DeviceIndex = 1)  returns 0x00 (0000ms, 0576ms total)
T3E7C 000:604 JLINK_GetDLLVersion()  returns 49805 (0000ms, 0576ms total)
T3E7C 000:604 JLINK_CORE_GetFound()  returns 0xE0000FF (0000ms, 0576ms total)
T3E7C 000:604 JLINK_GetDebugInfo(0x100) -- Value=0xE00FF003  returns 0x00 (0000ms, 0576ms total)
T3E7C 000:604 JLINK_ReadMem (0xE00FF000, 0x0020 Bytes, ...) -- CPU is running -- CPU_ReadMem(32 bytes @ 0xE00FF000) - Data: 03 F0 F0 FF 03 20 F0 FF 03 30 F0 FF 03 10 F0 FF ...  returns 0x00 (0001ms, 0577ms total)
T3E7C 000:605 JLINK_ReadMem (0xE000EFF0, 0x0010 Bytes, ...) -- CPU is running -- CPU_ReadMem(16 bytes @ 0xE000EFF0) - Data: 0D 00 00 00 E0 00 00 00 05 00 00 00 B1 00 00 00  returns 0x00 (0001ms, 0578ms total)
T3E7C 000:606 JLINK_ReadMem (0xE000EFD0, 0x0020 Bytes, ...) -- CPU is running -- CPU_ReadMem(32 bytes @ 0xE000EFD0) - Data: 04 00 00 00 00 00 00 00 00 00 00 00 00 00 00 00 ...  returns 0x00 (0001ms, 0579ms total)
T3E7C 000:607 JLINK_ReadMem (0xE0001FF0, 0x0010 Bytes, ...) -- CPU is running -- CPU_ReadMem(16 bytes @ 0xE0001FF0) - Data: 0D 00 00 00 E0 00 00 00 05 00 00 00 B1 00 00 00  returns 0x00 (0001ms, 0580ms total)
T3E7C 000:608 JLINK_ReadMem (0xE0001FD0, 0x0020 Bytes, ...) -- CPU is running -- CPU_ReadMem(32 bytes @ 0xE0001FD0) - Data: 04 00 00 00 00 00 00 00 00 00 00 00 00 00 00 00 ...  returns 0x00 (0001ms, 0581ms total)
T3E7C 000:609 JLINK_ReadMem (0xE0002FF0, 0x0010 Bytes, ...) -- CPU is running -- CPU_ReadMem(16 bytes @ 0xE0002FF0) - Data: 0D 00 00 00 E0 00 00 00 05 00 00 00 B1 00 00 00  returns 0x00 (0000ms, 0581ms total)
T3E7C 000:609 JLINK_ReadMem (0xE0002FD0, 0x0020 Bytes, ...) -- CPU is running -- CPU_ReadMem(32 bytes @ 0xE0002FD0) - Data: 04 00 00 00 00 00 00 00 00 00 00 00 00 00 00 00 ...  returns 0x00 (0001ms, 0582ms total)
T3E7C 000:610 JLINK_ReadMem (0xE0000FF0, 0x0010 Bytes, ...) -- CPU is running -- CPU_ReadMem(16 bytes @ 0xE0000FF0) - Data: 0D 00 00 00 E0 00 00 00 05 00 00 00 B1 00 00 00  returns 0x00 (0001ms, 0583ms total)
T3E7C 000:611 JLINK_ReadMem (0xE0000FD0, 0x0020 Bytes, ...) -- CPU is running -- CPU_ReadMem(32 bytes @ 0xE0000FD0) - Data: 04 00 00 00 00 00 00 00 00 00 00 00 00 00 00 00 ...  returns 0x00 (0001ms, 0584ms total)
T3E7C 000:612 JLINK_ReadMem (0xE0040FF0, 0x0010 Bytes, ...) -- CPU is running -- CPU_ReadMem(16 bytes @ 0xE0040FF0) - Data: 0D 00 00 00 90 00 00 00 05 00 00 00 B1 00 00 00  returns 0x00 (0000ms, 0584ms total)
T3E7C 000:612 JLINK_ReadMem (0xE0040FD0, 0x0020 Bytes, ...) -- CPU is running -- CPU_ReadMem(32 bytes @ 0xE0040FD0) - Data: 04 00 00 00 00 00 00 00 00 00 00 00 00 00 00 00 ...  returns 0x00 (0001ms, 0585ms total)
T3E7C 000:613 JLINK_ReadMem (0xE0041FF0, 0x0010 Bytes, ...) -- CPU is running -- CPU_ReadMem(16 bytes @ 0xE0041FF0) - Data: 0D 00 00 00 90 00 00 00 05 00 00 00 B1 00 00 00  returns 0x00 (0001ms, 0586ms total)
T3E7C 000:614 JLINK_ReadMem (0xE0041FD0, 0x0020 Bytes, ...) -- CPU is running -- CPU_ReadMem(32 bytes @ 0xE0041FD0) - Data: 04 00 00 00 00 00 00 00 00 00 00 00 00 00 00 00 ...  returns 0x00 (0001ms, 0587ms total)
T3E7C 000:615 JLINK_ReadMemU32(0xE000EF40, 0x0001 Items, ...) -- CPU is running -- CPU_ReadMem(4 bytes @ 0xE000EF40) - Data: 21 00 11 10  returns 0x01 (0000ms, 0587ms total)
T3E7C 000:615 JLINK_ReadMemU32(0xE000EF44, 0x0001 Items, ...) -- CPU is running -- CPU_ReadMem(4 bytes @ 0xE000EF44) - Data: 11 00 00 11  returns 0x01 (0001ms, 0588ms total)
T3E7C 000:616 JLINK_ReadMemU32(0xE000ED00, 0x0001 Items, ...) -- CPU is running -- CPU_ReadMem(4 bytes @ 0xE000ED00) - Data: 41 C2 0F 41  returns 0x01 (0000ms, 0588ms total)
T3E7C 000:616 JLINK_SetResetType(JLINKARM_RESET_TYPE_NORMAL)  returns JLINKARM_RESET_TYPE_NORMAL (0000ms, 0588ms total)
T3E7C 000:616 JLINK_Reset() -- CPU is running -- CPU_WriteMem(4 bytes @ 0xE000EDF0) -- CPU is running -- CPU_WriteMem(4 bytes @ 0xE000EDFC) -- CPU is running -- CPU_WriteMem(4 bytes @ 0xE000ED0C) -- CPU is running -- CPU_ReadMem(4 bytes @ 0xE000EDF0) -- CPU is running -- CPU_ReadMem(4 bytes @ 0xE000EDF0) -- CPU is running -- CPU_WriteMem(4 bytes @ 0xE000EDF0) -- CPU is running -- CPU_WriteMem(4 bytes @ 0xE000EDFC) -- CPU is running -- CPU_ReadMem(4 bytes @ 0xE000EDF0) >0x80 JTAG> >0x40 JTAG> >0x30 JTAG>
 >0x40 JTAG> >0x50 JTAG> >0x40 JTAG> -- CPU_WriteMem(4 bytes @ 0xE000EDFC) -- CPU_WriteMem(4 bytes @ 0xE0001028) -- CPU_WriteMem(4 bytes @ 0xE0001038) -- CPU_WriteMem(4 bytes @ 0xE0001048) -- CPU_WriteMem(4 bytes @ 0xE0001058) -- CPU_WriteMem(4 bytes @ 0xE0002000) -- CPU_ReadMem(4 bytes @ 0xE000EDFC) -- CPU_ReadMem(4 bytes @ 0xE0001000) (0028ms, 0616ms total)
T3E7C 000:644 JLINK_ReadReg(R15 (PC))  returns 0x08000258 (0000ms, 0616ms total)
T3E7C 000:644 JLINK_ReadReg(XPSR)  returns 0x01000000 (0000ms, 0616ms total)
T3E7C 000:644 JLINK_Halt()  returns 0x00 (0000ms, 0616ms total)
T3E7C 000:644 JLINK_IsHalted()  returns TRUE (0000ms, 0616ms total)
T3E7C 000:644 JLINK_ReadMemU32(0xE000EDF0, 0x0001 Items, ...) -- CPU_ReadMem(4 bytes @ 0xE000EDF0) - Data: 03 00 03 00  returns 0x01 (0001ms, 0617ms total)
T3E7C 000:645 JLINK_WriteU32(0xE000EDF0, 0xA05F0003) -- CPU_WriteMem(4 bytes @ 0xE000EDF0)  returns 0x00 (0000ms, 0617ms total)
T3E7C 000:645 JLINK_WriteU32(0xE000EDFC, 0x01000000) -- CPU_WriteMem(4 bytes @ 0xE000EDFC)  returns 0x00 (0001ms, 0618ms total)
T3E7C 000:648 JLINK_GetHWStatus(...)  returns 0x00 (0000ms, 0618ms total)
T3E7C 000:649 JLINK_GetNumBPUnits(Type = 0xFFFFFF00)  returns 0x06 (0000ms, 0618ms total)
T3E7C 000:649 JLINK_GetNumBPUnits(Type = 0xF0)  returns 0x2000 (0000ms, 0618ms total)
T3E7C 000:650 JLINK_GetNumWPUnits()  returns 0x04 (0000ms, 0619ms total)
T3E7C 000:651 JLINK_GetSpeed()  returns 0x12C0 (0000ms, 0619ms total)
T3E7C 000:651 JLINK_ReadMemU32(0xE000E004, 0x0001 Items, ...) -- CPU_ReadMem(4 bytes @ 0xE000E004) - Data: 02 00 00 00  returns 0x01 (0001ms, 0620ms total)
T3E7C 000:652 JLINK_ReadMemU32(0xE000E004, 0x0001 Items, ...) -- CPU_ReadMem(4 bytes @ 0xE000E004) - Data: 02 00 00 00  returns 0x01 (0001ms, 0621ms total)
T3E7C 000:653 JLINK_WriteMem(0xE0001000, 0x001C Bytes, ...) - Data: 01 00 00 00 00 00 00 00 00 00 00 00 00 00 00 00 ... -- CPU_WriteMem(28 bytes @ 0xE0001000)  returns 0x1C (0003ms, 0624ms total)
T3E7C 000:656 JLINK_ReadMem (0xE0001000, 0x001C Bytes, ...) -- CPU_ReadMem(28 bytes @ 0xE0001000) - Data: 01 00 00 40 00 00 00 00 00 00 00 00 00 00 00 00 ...  returns 0x00 (0001ms, 0625ms total)
T3E7C 000:657 JLINK_ReadReg(R15 (PC))  returns 0x08000258 (0000ms, 0625ms total)
T3E7C 000:657 JLINK_ReadReg(XPSR)  returns 0x01000000 (0000ms, 0625ms total)
T3E7C 000:801 JLINK_SetResetType(JLINKARM_RESET_TYPE_NORMAL)  returns JLINKARM_RESET_TYPE_NORMAL (0000ms, 0625ms total)
T3E7C 000:801 JLINK_Reset() -- CPU_WriteMem(4 bytes @ 0xE000EDF0) -- CPU_WriteMem(4 bytes @ 0xE000EDFC) -- CPU_WriteMem(4 bytes @ 0xE000ED0C) -- CPU_ReadMem(4 bytes @ 0xE000EDF0) -- CPU_ReadMem(4 bytes @ 0xE000EDF0) -- CPU_WriteMem(4 bytes @ 0xE000EDF0) -- CPU_WriteMem(4 bytes @ 0xE000EDFC) -- CPU is running -- CPU_ReadMem(4 bytes @ 0xE000EDF0) >0x80 JTAG> >0x40 JTAG> >0x30 JTAG> >0x40 JTAG> >0x50 JTAG> >0x40 JTAG> -- CPU_WriteMem(4 bytes @ 0xE000EDFC) -- CPU_WriteMem(4 bytes @ 0xE0001028)
 -- CPU_WriteMem(4 bytes @ 0xE0001038) -- CPU_WriteMem(4 bytes @ 0xE0001048) -- CPU_WriteMem(4 bytes @ 0xE0001058) -- CPU_WriteMem(4 bytes @ 0xE0002000) -- CPU_ReadMem(4 bytes @ 0xE000EDFC) -- CPU_ReadMem(4 bytes @ 0xE0001000) (0030ms, 0655ms total)
T3E7C 000:831 JLINK_ReadReg(R15 (PC))  returns 0x08000258 (0000ms, 0655ms total)
T3E7C 000:831 JLINK_ReadReg(XPSR)  returns 0x01000000 (0000ms, 0655ms total)
T3E7C 001:623 JLINK_ReadMem (0x20004E84, 0x0020 Bytes, ...) -- CPU_ReadMem(32 bytes @ 0x20004E84) - Data: 00 00 00 00 00 00 00 00 00 00 00 00 00 00 00 00 ...  returns 0x00 (0001ms, 0656ms total)
T3E7C 001:625 JLINK_ReadMem (0x20004E44, 0x0020 Bytes, ...) -- CPU_ReadMem(32 bytes @ 0x20004E44) - Data: 00 00 00 00 00 00 00 00 00 00 00 00 00 00 00 00 ...  returns 0x00 (0000ms, 0656ms total)
T3E7C 001:627 JLINK_ReadMem (0x20004E04, 0x0020 Bytes, ...) -- CPU_ReadMem(32 bytes @ 0x20004E04) - Data: 68 00 00 00 00 00 00 00 00 00 00 00 00 00 00 00 ...  returns 0x00 (0001ms, 0657ms total)
T3E7C 001:633 JLINK_ReadMem (0x20004EC4, 0x0020 Bytes, ...) -- CPU_ReadMem(32 bytes @ 0x20004EC4) - Data: 00 00 00 00 00 00 00 00 00 00 00 00 00 00 00 00 ...  returns 0x00 (0001ms, 0658ms total)
T3E7C 001:636 JLINK_ReadMem (0x20005258, 0x000F Bytes, ...) -- CPU_ReadMem(15 bytes @ 0x20005258) - Data: 00 FC E6 00 47 DF 63 03 12 FF F9 FF F2 FF D1  returns 0x00 (0001ms, 0659ms total)
T3E7C 001:642 JLINK_ReadMem (0x20000210, 0x0004 Bytes, ...) -- CPU_ReadMem(4 bytes @ 0x20000210) - Data: FF FF FF FF  returns 0x00 (0001ms, 0660ms total)
T3E7C 001:644 JLINK_ReadMem (0x20000214, 0x0004 Bytes, ...) -- CPU_ReadMem(4 bytes @ 0x20000214) - Data: FF FF FF FF  returns 0x00 (0000ms, 0660ms total)
T3D70 001:676 JLINK_SetBPEx(Addr = 0x0800E9C4, Type = 0xFFFFFFF2)  returns 0x00000001 (0000ms, 0660ms total)
T3D70 001:676 JLINK_SetBPEx(Addr = 0x0800D41A, Type = 0xFFFFFFF2)  returns 0x00000002 (0000ms, 0660ms total)
T3D70 001:676 JLINK_Go() -- CPU_ReadMem(4 bytes @ 0xE0001000) -- CPU_WriteMem(4 bytes @ 0xE0002008) -- CPU_WriteMem(4 bytes @ 0xE000200C) -- CPU_WriteMem(4 bytes @ 0xE0002010) -- CPU_WriteMem(4 bytes @ 0xE0002014) -- CPU_WriteMem(4 bytes @ 0xE0002018) -- CPU_WriteMem(4 bytes @ 0xE000201C) -- CPU_WriteMem(4 bytes @ 0xE0001004) (0004ms, 0664ms total)
T3D70 001:781 JLINK_IsHalted()  returns TRUE (0003ms, 0667ms total)
T3D70 001:784 JLINK_Halt()  returns 0x00 (0000ms, 0664ms total)
T3D70 001:784 JLINK_IsHalted()  returns TRUE (0000ms, 0664ms total)
T3D70 001:784 JLINK_IsHalted()  returns TRUE (0000ms, 0664ms total)
T3D70 001:784 JLINK_IsHalted()  returns TRUE (0000ms, 0664ms total)
T3D70 001:784 JLINK_ReadReg(R15 (PC))  returns 0x0800E9C4 (0000ms, 0664ms total)
T3D70 001:784 JLINK_ReadReg(XPSR)  returns 0x61000000 (0000ms, 0664ms total)
T3D70 001:784 JLINK_ClrBPEx(BPHandle = 0x00000001)  returns 0x00 (0000ms, 0664ms total)
T3D70 001:784 JLINK_ClrBPEx(BPHandle = 0x00000002)  returns 0x00 (0000ms, 0664ms total)
T3D70 001:784 JLINK_ReadMemU32(0xE000ED30, 0x0001 Items, ...) -- CPU_ReadMem(4 bytes @ 0xE000ED30) - Data: 03 00 00 00  returns 0x01 (0000ms, 0664ms total)
T3D70 001:784 JLINK_ReadMemU32(0xE0001028, 0x0001 Items, ...) -- CPU_ReadMem(4 bytes @ 0xE0001028) - Data: 00 00 00 00  returns 0x01 (0001ms, 0665ms total)
T3D70 001:785 JLINK_ReadMemU32(0xE0001038, 0x0001 Items, ...) -- CPU_ReadMem(4 bytes @ 0xE0001038) - Data: 00 02 00 00  returns 0x01 (0001ms, 0666ms total)
T3D70 001:786 JLINK_ReadMemU32(0xE0001048, 0x0001 Items, ...) -- CPU_ReadMem(4 bytes @ 0xE0001048) - Data: 00 00 00 00  returns 0x01 (0000ms, 0666ms total)
T3D70 001:786 JLINK_ReadMemU32(0xE0001058, 0x0001 Items, ...) -- CPU_ReadMem(4 bytes @ 0xE0001058) - Data: 00 00 00 00  returns 0x01 (0001ms, 0667ms total)
T3D70 001:787 JLINK_ReadReg(R0)  returns 0x0800E9C5 (0000ms, 0667ms total)
T3D70 001:787 JLINK_ReadReg(R1)  returns 0x20006450 (0000ms, 0667ms total)
T3D70 001:787 JLINK_ReadReg(R2)  returns 0x00000000 (0000ms, 0667ms total)
T3D70 001:787 JLINK_ReadReg(R3)  returns 0x0800C219 (0000ms, 0667ms total)
T3D70 001:787 JLINK_ReadReg(R4)  returns 0x08047374 (0000ms, 0667ms total)
T3D70 001:787 JLINK_ReadReg(R5)  returns 0x08047374 (0000ms, 0667ms total)
T3D70 001:787 JLINK_ReadReg(R6)  returns 0x00000000 (0000ms, 0667ms total)
T3D70 001:787 JLINK_ReadReg(R7)  returns 0x00000000 (0000ms, 0667ms total)
T3D70 001:787 JLINK_ReadReg(R8)  returns 0x00000000 (0000ms, 0667ms total)
T3D70 001:787 JLINK_ReadReg(R9)  returns 0x00000000 (0000ms, 0667ms total)
T3D70 001:787 JLINK_ReadReg(R10)  returns 0x00000000 (0000ms, 0667ms total)
T3D70 001:787 JLINK_ReadReg(R11)  returns 0x00000000 (0000ms, 0667ms total)
T3D70 001:787 JLINK_ReadReg(R12)  returns 0x00000000 (0000ms, 0667ms total)
T3D70 001:787 JLINK_ReadReg(R13 (SP))  returns 0x20006450 (0000ms, 0667ms total)
T3D70 001:787 JLINK_ReadReg(R14)  returns 0x08000949 (0000ms, 0667ms total)
T3D70 001:787 JLINK_ReadReg(R15 (PC))  returns 0x0800E9C4 (0000ms, 0667ms total)
T3D70 001:787 JLINK_ReadReg(XPSR)  returns 0x61000000 (0000ms, 0667ms total)
T3D70 001:787 JLINK_ReadReg(MSP)  returns 0x20006450 (0000ms, 0667ms total)
T3D70 001:787 JLINK_ReadReg(PSP)  returns 0x00000000 (0000ms, 0667ms total)
T3D70 001:787 JLINK_ReadReg(CFBP)  returns 0x00000000 (0000ms, 0667ms total)
T3D70 001:787 JLINK_ReadReg(FPSCR)  returns 0x00000000 (0005ms, 0672ms total)
T3D70 001:792 JLINK_ReadReg(FPS0)  returns 0x00000000 (0000ms, 0672ms total)
T3D70 001:792 JLINK_ReadReg(FPS1)  returns 0x00000000 (0000ms, 0672ms total)
T3D70 001:792 JLINK_ReadReg(FPS2)  returns 0x00000000 (0000ms, 0672ms total)
T3D70 001:792 JLINK_ReadReg(FPS3)  returns 0x00000000 (0000ms, 0672ms total)
T3D70 001:792 JLINK_ReadReg(FPS4)  returns 0x00000000 (0000ms, 0672ms total)
T3D70 001:792 JLINK_ReadReg(FPS5)  returns 0x00000000 (0000ms, 0672ms total)
T3D70 001:792 JLINK_ReadReg(FPS6)  returns 0x00000000 (0000ms, 0672ms total)
T3D70 001:792 JLINK_ReadReg(FPS7)  returns 0x00000000 (0000ms, 0672ms total)
T3D70 001:792 JLINK_ReadReg(FPS8)  returns 0x00000000 (0000ms, 0672ms total)
T3D70 001:792 JLINK_ReadReg(FPS9)  returns 0x00000000 (0000ms, 0672ms total)
T3D70 001:792 JLINK_ReadReg(FPS10)  returns 0x00000000 (0000ms, 0672ms total)
T3D70 001:792 JLINK_ReadReg(FPS11)  returns 0x00000000 (0000ms, 0672ms total)
T3D70 001:792 JLINK_ReadReg(FPS12)  returns 0x00000000 (0000ms, 0672ms total)
T3D70 001:792 JLINK_ReadReg(FPS13)  returns 0x00000000 (0000ms, 0672ms total)
T3D70 001:792 JLINK_ReadReg(FPS14)  returns 0x00000000 (0000ms, 0672ms total)
T3D70 001:792 JLINK_ReadReg(FPS15)  returns 0x00000000 (0000ms, 0672ms total)
T3D70 001:792 JLINK_ReadReg(FPS16)  returns 0x00000000 (0000ms, 0672ms total)
T3D70 001:792 JLINK_ReadReg(FPS17)  returns 0x00000000 (0000ms, 0672ms total)
T3D70 001:792 JLINK_ReadReg(FPS18)  returns 0x00000000 (0000ms, 0672ms total)
T3D70 001:792 JLINK_ReadReg(FPS19)  returns 0x00000000 (0000ms, 0672ms total)
T3D70 001:792 JLINK_ReadReg(FPS20)  returns 0x00000000 (0000ms, 0672ms total)
T3D70 001:792 JLINK_ReadReg(FPS21)  returns 0x00000000 (0000ms, 0672ms total)
T3D70 001:792 JLINK_ReadReg(FPS22)  returns 0x00000000 (0000ms, 0672ms total)
T3D70 001:792 JLINK_ReadReg(FPS23)  returns 0x00000000 (0000ms, 0672ms total)
T3D70 001:792 JLINK_ReadReg(FPS24)  returns 0x00000000 (0000ms, 0672ms total)
T3D70 001:792 JLINK_ReadReg(FPS25)  returns 0x00000000 (0000ms, 0672ms total)
T3D70 001:792 JLINK_ReadReg(FPS26)  returns 0x00000000 (0000ms, 0672ms total)
T3D70 001:792 JLINK_ReadReg(FPS27)  returns 0x00000000 (0000ms, 0672ms total)
T3D70 001:792 JLINK_ReadReg(FPS28)  returns 0x00000000 (0000ms, 0672ms total)
T3D70 001:792 JLINK_ReadReg(FPS29)  returns 0x00000000 (0000ms, 0672ms total)
T3D70 001:792 JLINK_ReadReg(FPS30)  returns 0x00000000 (0000ms, 0672ms total)
T3D70 001:792 JLINK_ReadReg(FPS31)  returns 0x00000000 (0000ms, 0672ms total)
T3E7C 001:795 JLINK_ReadMem (0x20004E84, 0x0020 Bytes, ...) -- CPU_ReadMem(32 bytes @ 0x20004E84) - Data: 00 00 00 00 00 00 00 00 00 00 00 00 00 00 00 00 ...  returns 0x00 (0001ms, 0673ms total)
T3E7C 001:796 JLINK_ReadMem (0x20004E44, 0x0020 Bytes, ...) -- CPU_ReadMem(32 bytes @ 0x20004E44) - Data: 00 00 00 00 00 00 00 00 00 00 00 00 00 00 00 00 ...  returns 0x00 (0001ms, 0674ms total)
T3E7C 001:797 JLINK_ReadMem (0x20004E04, 0x0020 Bytes, ...) -- CPU_ReadMem(32 bytes @ 0x20004E04) - Data: 00 00 00 00 00 00 00 00 00 00 00 00 00 00 00 00 ...  returns 0x00 (0001ms, 0675ms total)
T3E7C 001:798 JLINK_ReadMem (0x20004EC4, 0x0020 Bytes, ...) -- CPU_ReadMem(32 bytes @ 0x20004EC4) - Data: 00 00 00 00 00 00 00 00 00 00 00 00 00 00 00 00 ...  returns 0x00 (0001ms, 0676ms total)
T3E7C 001:799 JLINK_ReadMem (0x20005258, 0x000F Bytes, ...) -- CPU_ReadMem(15 bytes @ 0x20005258) - Data: 00 00 00 00 00 00 00 00 00 00 00 00 00 00 00  returns 0x00 (0001ms, 0677ms total)
T3E7C 001:800 JLINK_ReadMem (0x20000210, 0x0004 Bytes, ...) -- CPU_ReadMem(4 bytes @ 0x20000210) - Data: 00 00 00 00  returns 0x00 (0001ms, 0678ms total)
T3E7C 001:801 JLINK_ReadMem (0x20000214, 0x0004 Bytes, ...) -- CPU_ReadMem(4 bytes @ 0x20000214) - Data: 00 00 00 00  returns 0x00 (0000ms, 0678ms total)
T3D70 007:619 JLINK_SetBPEx(Addr = 0x0800D41A, Type = 0xFFFFFFF2)  returns 0x00000003 (0001ms, 0679ms total)
T3D70 007:620 JLINK_SetBPEx(Addr = 0x0800FF90, Type = 0xFFFFFFF2)  returns 0x00000004 (0000ms, 0679ms total)
T3D70 007:620 JLINK_Go() -- CPU_ReadMem(4 bytes @ 0xE0001000) -- CPU_WriteMem(4 bytes @ 0xE0002008) -- CPU_WriteMem(4 bytes @ 0xE000200C) (0002ms, 0681ms total)
T3D70 007:722 JLINK_IsHalted()  returns FALSE (0000ms, 0681ms total)
T3D70 007:823 JLINK_IsHalted()  returns TRUE (0003ms, 0684ms total)
T3D70 007:826 JLINK_Halt()  returns 0x00 (0000ms, 0681ms total)
T3D70 007:826 JLINK_IsHalted()  returns TRUE (0000ms, 0681ms total)
T3D70 007:826 JLINK_IsHalted()  returns TRUE (0000ms, 0681ms total)
T3D70 007:826 JLINK_IsHalted()  returns TRUE (0000ms, 0681ms total)
T3D70 007:826 JLINK_ReadReg(R15 (PC))  returns 0x0800FF90 (0000ms, 0681ms total)
T3D70 007:826 JLINK_ReadReg(XPSR)  returns 0x41000000 (0000ms, 0681ms total)
T3D70 007:826 JLINK_ClrBPEx(BPHandle = 0x00000003)  returns 0x00 (0000ms, 0681ms total)
T3D70 007:826 JLINK_ClrBPEx(BPHandle = 0x00000004)  returns 0x00 (0000ms, 0681ms total)
T3D70 007:826 JLINK_ReadMemU32(0xE000ED30, 0x0001 Items, ...) -- CPU_ReadMem(4 bytes @ 0xE000ED30) - Data: 03 00 00 00  returns 0x01 (0001ms, 0682ms total)
T3D70 007:827 JLINK_ReadMemU32(0xE0001028, 0x0001 Items, ...) -- CPU_ReadMem(4 bytes @ 0xE0001028) - Data: 00 00 00 00  returns 0x01 (0001ms, 0683ms total)
T3D70 007:828 JLINK_ReadMemU32(0xE0001038, 0x0001 Items, ...) -- CPU_ReadMem(4 bytes @ 0xE0001038) - Data: 00 02 00 00  returns 0x01 (0000ms, 0683ms total)
T3D70 007:828 JLINK_ReadMemU32(0xE0001048, 0x0001 Items, ...) -- CPU_ReadMem(4 bytes @ 0xE0001048) - Data: 00 00 00 00  returns 0x01 (0001ms, 0684ms total)
T3D70 007:829 JLINK_ReadMemU32(0xE0001058, 0x0001 Items, ...) -- CPU_ReadMem(4 bytes @ 0xE0001058) - Data: 00 00 00 00  returns 0x01 (0001ms, 0685ms total)
T3D70 007:830 JLINK_ReadReg(R0)  returns 0x00000001 (0000ms, 0685ms total)
T3D70 007:830 JLINK_ReadReg(R1)  returns 0x20000018 (0000ms, 0685ms total)
T3D70 007:830 JLINK_ReadReg(R2)  returns 0xA5A5A5A5 (0000ms, 0685ms total)
T3D70 007:830 JLINK_ReadReg(R3)  returns 0xA5A5A5A5 (0000ms, 0685ms total)
T3D70 007:830 JLINK_ReadReg(R4)  returns 0x00000000 (0000ms, 0685ms total)
T3D70 007:830 JLINK_ReadReg(R5)  returns 0x00000000 (0000ms, 0685ms total)
T3D70 007:830 JLINK_ReadReg(R6)  returns 0xA5A5A5A5 (0000ms, 0685ms total)
T3D70 007:830 JLINK_ReadReg(R7)  returns 0xA5A5A5A5 (0000ms, 0685ms total)
T3D70 007:830 JLINK_ReadReg(R8)  returns 0xA5A5A5A5 (0000ms, 0685ms total)
T3D70 007:830 JLINK_ReadReg(R9)  returns 0xA5A5A5A5 (0000ms, 0685ms total)
T3D70 007:830 JLINK_ReadReg(R10)  returns 0xA5A5A5A5 (0000ms, 0685ms total)
T3D70 007:830 JLINK_ReadReg(R11)  returns 0xA5A5A5A5 (0000ms, 0685ms total)
T3D70 007:830 JLINK_ReadReg(R12)  returns 0xA5A5A5A5 (0001ms, 0686ms total)
T3D70 007:831 JLINK_ReadReg(R13 (SP))  returns 0x20001760 (0000ms, 0686ms total)
T3D70 007:831 JLINK_ReadReg(R14)  returns 0x0800FF8D (0000ms, 0686ms total)
T3D70 007:831 JLINK_ReadReg(R15 (PC))  returns 0x0800FF90 (0000ms, 0686ms total)
T3D70 007:831 JLINK_ReadReg(XPSR)  returns 0x41000000 (0000ms, 0686ms total)
T3D70 007:831 JLINK_ReadReg(MSP)  returns 0x200063E8 (0000ms, 0686ms total)
T3D70 007:831 JLINK_ReadReg(PSP)  returns 0x20001760 (0000ms, 0686ms total)
T3D70 007:831 JLINK_ReadReg(CFBP)  returns 0x02000000 (0000ms, 0686ms total)
T3D70 007:831 JLINK_ReadReg(FPSCR)  returns 0x00000010 (0005ms, 0691ms total)
T3D70 007:836 JLINK_ReadReg(FPS0)  returns 0x00000000 (0000ms, 0691ms total)
T3D70 007:836 JLINK_ReadReg(FPS1)  returns 0x00000000 (0000ms, 0691ms total)
T3D70 007:836 JLINK_ReadReg(FPS2)  returns 0x00000000 (0000ms, 0691ms total)
T3D70 007:836 JLINK_ReadReg(FPS3)  returns 0x00000000 (0000ms, 0691ms total)
T3D70 007:836 JLINK_ReadReg(FPS4)  returns 0x00000000 (0000ms, 0691ms total)
T3D70 007:836 JLINK_ReadReg(FPS5)  returns 0x3C5AE08F (0000ms, 0691ms total)
T3D70 007:837 JLINK_ReadReg(FPS6)  returns 0x00000000 (0000ms, 0691ms total)
T3D70 007:837 JLINK_ReadReg(FPS7)  returns 0x00000000 (0000ms, 0691ms total)
T3D70 007:837 JLINK_ReadReg(FPS8)  returns 0x00000000 (0000ms, 0691ms total)
T3D70 007:837 JLINK_ReadReg(FPS9)  returns 0x00000000 (0000ms, 0691ms total)
T3D70 007:837 JLINK_ReadReg(FPS10)  returns 0x00000000 (0000ms, 0691ms total)
T3D70 007:837 JLINK_ReadReg(FPS11)  returns 0x00000000 (0000ms, 0691ms total)
T3D70 007:837 JLINK_ReadReg(FPS12)  returns 0x00000000 (0000ms, 0691ms total)
T3D70 007:837 JLINK_ReadReg(FPS13)  returns 0x00000000 (0000ms, 0691ms total)
T3D70 007:837 JLINK_ReadReg(FPS14)  returns 0x00000000 (0000ms, 0691ms total)
T3D70 007:837 JLINK_ReadReg(FPS15)  returns 0x00000000 (0000ms, 0691ms total)
T3D70 007:837 JLINK_ReadReg(FPS16)  returns 0x00000000 (0000ms, 0691ms total)
T3D70 007:837 JLINK_ReadReg(FPS17)  returns 0x00000000 (0000ms, 0691ms total)
T3D70 007:837 JLINK_ReadReg(FPS18)  returns 0x00000000 (0000ms, 0691ms total)
T3D70 007:837 JLINK_ReadReg(FPS19)  returns 0x00000000 (0000ms, 0691ms total)
T3D70 007:837 JLINK_ReadReg(FPS20)  returns 0x00000000 (0000ms, 0691ms total)
T3D70 007:837 JLINK_ReadReg(FPS21)  returns 0x00000000 (0000ms, 0691ms total)
T3D70 007:837 JLINK_ReadReg(FPS22)  returns 0x00000000 (0000ms, 0691ms total)
T3D70 007:837 JLINK_ReadReg(FPS23)  returns 0x00000000 (0000ms, 0691ms total)
T3D70 007:837 JLINK_ReadReg(FPS24)  returns 0x00000000 (0000ms, 0691ms total)
T3D70 007:837 JLINK_ReadReg(FPS25)  returns 0x00000000 (0000ms, 0691ms total)
T3D70 007:837 JLINK_ReadReg(FPS26)  returns 0x00000000 (0000ms, 0691ms total)
T3D70 007:837 JLINK_ReadReg(FPS27)  returns 0x00000000 (0000ms, 0691ms total)
T3D70 007:837 JLINK_ReadReg(FPS28)  returns 0x00000000 (0000ms, 0691ms total)
T3D70 007:837 JLINK_ReadReg(FPS29)  returns 0x00000000 (0000ms, 0691ms total)
T3D70 007:838 JLINK_ReadReg(FPS30)  returns 0x00000000 (0000ms, 0691ms total)
T3D70 007:838 JLINK_ReadReg(FPS31)  returns 0x00000000 (0000ms, 0691ms total)
T3E7C 007:838 JLINK_ReadMem (0x20001764, 0x0004 Bytes, ...) -- CPU_ReadMem(4 bytes @ 0x20001764) - Data: 11 F7 00 08  returns 0x00 (0001ms, 0692ms total)
T3E7C 007:840 JLINK_ReadMem (0x2000176C, 0x0004 Bytes, ...) -- CPU_ReadMem(4 bytes @ 0x2000176C) - Data: A5 A5 A5 A5  returns 0x00 (0001ms, 0693ms total)
T3E7C 007:841 JLINK_ReadMem (0x20001760, 0x0004 Bytes, ...) -- CPU_ReadMem(4 bytes @ 0x20001760) - Data: 01 00 00 00  returns 0x00 (0001ms, 0694ms total)
T3E7C 007:842 JLINK_ReadMem (0x00000000, 0x0004 Bytes, ...) -- CPU_ReadMem(4 bytes @ 0x00000000) - Data: 50 64 00 20  returns 0x00 (0001ms, 0695ms total)
T3E7C 007:853 JLINK_ReadMem (0x20004E84, 0x0020 Bytes, ...) -- CPU_ReadMem(32 bytes @ 0x20004E84) - Data: 00 00 00 00 00 00 00 00 00 00 00 00 00 00 00 00 ...  returns 0x00 (0001ms, 0696ms total)
T3E7C 007:854 JLINK_ReadMem (0x20004E44, 0x0020 Bytes, ...) -- CPU_ReadMem(32 bytes @ 0x20004E44) - Data: 00 00 00 00 00 00 00 00 00 00 00 00 00 00 00 00 ...  returns 0x00 (0001ms, 0697ms total)
T3E7C 007:855 JLINK_ReadMem (0x20004E04, 0x0020 Bytes, ...) -- CPU_ReadMem(32 bytes @ 0x20004E04) - Data: 00 00 00 00 00 00 00 00 00 00 00 00 00 00 00 00 ...  returns 0x00 (0001ms, 0698ms total)
T3E7C 007:857 JLINK_ReadMem (0x20004EC4, 0x0020 Bytes, ...) -- CPU_ReadMem(32 bytes @ 0x20004EC4) - Data: 00 00 00 00 00 00 00 00 00 00 00 00 00 00 00 00 ...  returns 0x00 (0000ms, 0698ms total)
T3E7C 007:857 JLINK_ReadMem (0x20005258, 0x000F Bytes, ...) -- CPU_ReadMem(15 bytes @ 0x20005258) - Data: 00 00 00 00 00 00 00 00 00 00 00 00 00 00 00  returns 0x00 (0001ms, 0699ms total)
T3E7C 007:861 JLINK_ReadMem (0x20000210, 0x0004 Bytes, ...) -- CPU_ReadMem(4 bytes @ 0x20000210) - Data: 00 00 00 00  returns 0x00 (0001ms, 0700ms total)
T3E7C 007:862 JLINK_ReadMem (0x20000214, 0x0004 Bytes, ...) -- CPU_ReadMem(4 bytes @ 0x20000214) - Data: 00 00 00 00  returns 0x00 (0000ms, 0700ms total)
T3E7C 011:372 JLINK_SetResetType(JLINKARM_RESET_TYPE_NORMAL)  returns JLINKARM_RESET_TYPE_NORMAL (0000ms, 0700ms total)
T3E7C 011:372 JLINK_Reset() -- CPU_WriteMem(4 bytes @ 0xE000EDF0) -- CPU_WriteMem(4 bytes @ 0xE000EDFC) -- CPU_WriteMem(4 bytes @ 0xE000ED0C) -- CPU_ReadMem(4 bytes @ 0xE000EDF0) -- CPU_ReadMem(4 bytes @ 0xE000EDF0) -- CPU_WriteMem(4 bytes @ 0xE000EDF0) -- CPU_WriteMem(4 bytes @ 0xE000EDFC) -- CPU is running -- CPU_ReadMem(4 bytes @ 0xE000EDF0) >0x80 JTAG> >0x40 JTAG> >0x30 JTAG> >0x40 JTAG> >0x50 JTAG> >0x40 JTAG> -- CPU_WriteMem(4 bytes @ 0xE000EDFC) -- CPU_WriteMem(4 bytes @ 0xE0001028)
 -- CPU_WriteMem(4 bytes @ 0xE0001038) -- CPU_WriteMem(4 bytes @ 0xE0001048) -- CPU_WriteMem(4 bytes @ 0xE0001058) -- CPU_WriteMem(4 bytes @ 0xE0002000) -- CPU_ReadMem(4 bytes @ 0xE000EDFC) -- CPU_ReadMem(4 bytes @ 0xE0001000) (0026ms, 0726ms total)
T3E7C 011:398 JLINK_ReadReg(R15 (PC))  returns 0x08000258 (0000ms, 0726ms total)
T3E7C 011:398 JLINK_ReadReg(XPSR)  returns 0x01000000 (0000ms, 0726ms total)
T3E7C 011:412 JLINK_ReadMem (0x20004E84, 0x0020 Bytes, ...) -- CPU_ReadMem(32 bytes @ 0x20004E84) - Data: 00 00 00 00 00 00 00 00 00 00 00 00 00 00 00 00 ...  returns 0x00 (0002ms, 0728ms total)
T3E7C 011:414 JLINK_ReadMem (0x20004E44, 0x0020 Bytes, ...) -- CPU_ReadMem(32 bytes @ 0x20004E44) - Data: 00 00 00 00 00 00 00 00 00 00 00 00 00 00 00 00 ...  returns 0x00 (0000ms, 0728ms total)
T3E7C 011:414 JLINK_ReadMem (0x20004E04, 0x0020 Bytes, ...) -- CPU_ReadMem(32 bytes @ 0x20004E04) - Data: 00 00 00 00 00 00 00 00 00 00 00 00 00 00 00 00 ...  returns 0x00 (0000ms, 0728ms total)
T3E7C 011:415 JLINK_ReadMem (0x20004EC4, 0x0020 Bytes, ...) -- CPU_ReadMem(32 bytes @ 0x20004EC4) - Data: 00 00 00 00 00 00 00 00 00 00 00 00 00 00 00 00 ...  returns 0x00 (0001ms, 0729ms total)
T3E7C 011:416 JLINK_ReadMem (0x20005258, 0x000F Bytes, ...) -- CPU_ReadMem(15 bytes @ 0x20005258) - Data: 00 00 00 00 00 00 00 00 00 00 00 00 00 00 00  returns 0x00 (0001ms, 0730ms total)
T3E7C 011:417 JLINK_ReadMem (0x20000210, 0x0004 Bytes, ...) -- CPU_ReadMem(4 bytes @ 0x20000210) - Data: 00 00 00 00  returns 0x00 (0000ms, 0730ms total)
T3E7C 011:418 JLINK_ReadMem (0x20000214, 0x0004 Bytes, ...) -- CPU_ReadMem(4 bytes @ 0x20000214) - Data: 00 00 00 00  returns 0x00 (0000ms, 0731ms total)
T3D70 011:959 JLINK_SetBPEx(Addr = 0x0800D41A, Type = 0xFFFFFFF2)  returns 0x00000005 (0000ms, 0731ms total)
T3D70 011:959 JLINK_Go() -- CPU_ReadMem(4 bytes @ 0xE0001000) -- CPU_WriteMem(4 bytes @ 0xE0002008) -- CPU_WriteMem(4 bytes @ 0xE000200C) -- CPU_WriteMem(4 bytes @ 0xE0002010) -- CPU_WriteMem(4 bytes @ 0xE0002014) -- CPU_WriteMem(4 bytes @ 0xE0002018) -- CPU_WriteMem(4 bytes @ 0xE000201C) -- CPU_WriteMem(4 bytes @ 0xE0001004) (0004ms, 0735ms total)
T3D70 012:063 JLINK_IsHalted()  returns FALSE (0001ms, 0736ms total)
T3D70 012:164 JLINK_IsHalted()  returns TRUE (0003ms, 0738ms total)
T3D70 012:167 JLINK_Halt()  returns 0x00 (0000ms, 0735ms total)
T3D70 012:167 JLINK_IsHalted()  returns TRUE (0000ms, 0735ms total)
T3D70 012:167 JLINK_IsHalted()  returns TRUE (0000ms, 0735ms total)
T3D70 012:167 JLINK_IsHalted()  returns TRUE (0000ms, 0735ms total)
T3D70 012:167 JLINK_ReadReg(R15 (PC))  returns 0x0800D41A (0000ms, 0735ms total)
T3D70 012:167 JLINK_ReadReg(XPSR)  returns 0x21000000 (0000ms, 0735ms total)
T3D70 012:167 JLINK_ClrBPEx(BPHandle = 0x00000005)  returns 0x00 (0000ms, 0735ms total)
T3D70 012:167 JLINK_ReadMemU32(0xE000ED30, 0x0001 Items, ...) -- CPU_ReadMem(4 bytes @ 0xE000ED30) - Data: 03 00 00 00  returns 0x01 (0001ms, 0736ms total)
T3D70 012:168 JLINK_ReadMemU32(0xE0001028, 0x0001 Items, ...) -- CPU_ReadMem(4 bytes @ 0xE0001028) - Data: 00 00 00 00  returns 0x01 (0000ms, 0736ms total)
T3D70 012:168 JLINK_ReadMemU32(0xE0001038, 0x0001 Items, ...) -- CPU_ReadMem(4 bytes @ 0xE0001038) - Data: 00 02 00 00  returns 0x01 (0001ms, 0737ms total)
T3D70 012:169 JLINK_ReadMemU32(0xE0001048, 0x0001 Items, ...) -- CPU_ReadMem(4 bytes @ 0xE0001048) - Data: 00 00 00 00  returns 0x01 (0001ms, 0738ms total)
T3D70 012:170 JLINK_ReadMemU32(0xE0001058, 0x0001 Items, ...) -- CPU_ReadMem(4 bytes @ 0xE0001058) - Data: 00 00 00 00  returns 0x01 (0000ms, 0738ms total)
T3D70 012:171 JLINK_ReadReg(R0)  returns 0x00000000 (0000ms, 0738ms total)
T3D70 012:171 JLINK_ReadReg(R1)  returns 0x0086CF26 (0000ms, 0738ms total)
T3D70 012:171 JLINK_ReadReg(R2)  returns 0x00000000 (0000ms, 0738ms total)
T3D70 012:171 JLINK_ReadReg(R3)  returns 0x007ECB00 (0000ms, 0738ms total)
T3D70 012:171 JLINK_ReadReg(R4)  returns 0x00080426 (0000ms, 0738ms total)
T3D70 012:171 JLINK_ReadReg(R5)  returns 0x00000000 (0000ms, 0738ms total)
T3D70 012:171 JLINK_ReadReg(R6)  returns 0xA5A5A5A5 (0000ms, 0738ms total)
T3D70 012:171 JLINK_ReadReg(R7)  returns 0xA5A5A5A5 (0000ms, 0738ms total)
T3D70 012:171 JLINK_ReadReg(R8)  returns 0xA5A5A5A5 (0000ms, 0738ms total)
T3D70 012:171 JLINK_ReadReg(R9)  returns 0x20005268 (0000ms, 0738ms total)
T3D70 012:171 JLINK_ReadReg(R10)  returns 0xA5A5A5A5 (0000ms, 0738ms total)
T3D70 012:171 JLINK_ReadReg(R11)  returns 0xA5A5A5A5 (0000ms, 0738ms total)
T3D70 012:171 JLINK_ReadReg(R12)  returns 0x40013000 (0000ms, 0738ms total)
T3D70 012:171 JLINK_ReadReg(R13 (SP))  returns 0x20001718 (0000ms, 0738ms total)
T3D70 012:171 JLINK_ReadReg(R14)  returns 0x08010011 (0000ms, 0738ms total)
T3D70 012:171 JLINK_ReadReg(R15 (PC))  returns 0x0800D41A (0000ms, 0738ms total)
T3D70 012:171 JLINK_ReadReg(XPSR)  returns 0x21000000 (0001ms, 0739ms total)
T3D70 012:172 JLINK_ReadReg(MSP)  returns 0x200063E8 (0000ms, 0739ms total)
T3D70 012:172 JLINK_ReadReg(PSP)  returns 0x20001718 (0000ms, 0739ms total)
T3D70 012:172 JLINK_ReadReg(CFBP)  returns 0x02000000 (0000ms, 0739ms total)
T3D70 012:172 JLINK_ReadReg(FPSCR)  returns 0x00000000 (0004ms, 0743ms total)
T3D70 012:176 JLINK_ReadReg(FPS0)  returns 0x423CF175 (0000ms, 0743ms total)
T3D70 012:176 JLINK_ReadReg(FPS1)  returns 0x424C0000 (0000ms, 0743ms total)
T3D70 012:176 JLINK_ReadReg(FPS2)  returns 0x4466F728 (0000ms, 0743ms total)
T3D70 012:176 JLINK_ReadReg(FPS3)  returns 0x445DA8B6 (0000ms, 0743ms total)
T3D70 012:176 JLINK_ReadReg(FPS4)  returns 0x4451AC34 (0000ms, 0743ms total)
T3D70 012:176 JLINK_ReadReg(FPS5)  returns 0x3C5AE08F (0001ms, 0744ms total)
T3D70 012:177 JLINK_ReadReg(FPS6)  returns 0x00000000 (0000ms, 0744ms total)
T3D70 012:177 JLINK_ReadReg(FPS7)  returns 0x00000000 (0000ms, 0744ms total)
T3D70 012:177 JLINK_ReadReg(FPS8)  returns 0x00000000 (0000ms, 0744ms total)
T3D70 012:177 JLINK_ReadReg(FPS9)  returns 0x00000000 (0000ms, 0744ms total)
T3D70 012:177 JLINK_ReadReg(FPS10)  returns 0x00000000 (0000ms, 0744ms total)
T3D70 012:177 JLINK_ReadReg(FPS11)  returns 0x00000000 (0000ms, 0744ms total)
T3D70 012:177 JLINK_ReadReg(FPS12)  returns 0x00000000 (0000ms, 0744ms total)
T3D70 012:177 JLINK_ReadReg(FPS13)  returns 0x00000000 (0000ms, 0744ms total)
T3D70 012:177 JLINK_ReadReg(FPS14)  returns 0x00000000 (0000ms, 0744ms total)
T3D70 012:177 JLINK_ReadReg(FPS15)  returns 0x00000000 (0000ms, 0744ms total)
T3D70 012:177 JLINK_ReadReg(FPS16)  returns 0x00000000 (0000ms, 0744ms total)
T3D70 012:177 JLINK_ReadReg(FPS17)  returns 0x00000000 (0000ms, 0744ms total)
T3D70 012:177 JLINK_ReadReg(FPS18)  returns 0x00000000 (0000ms, 0744ms total)
T3D70 012:177 JLINK_ReadReg(FPS19)  returns 0x00000000 (0000ms, 0744ms total)
T3D70 012:177 JLINK_ReadReg(FPS20)  returns 0x00000000 (0000ms, 0744ms total)
T3D70 012:177 JLINK_ReadReg(FPS21)  returns 0x00000000 (0000ms, 0744ms total)
T3D70 012:177 JLINK_ReadReg(FPS22)  returns 0x00000000 (0000ms, 0744ms total)
T3D70 012:177 JLINK_ReadReg(FPS23)  returns 0x00000000 (0000ms, 0744ms total)
T3D70 012:177 JLINK_ReadReg(FPS24)  returns 0x00000000 (0000ms, 0744ms total)
T3D70 012:177 JLINK_ReadReg(FPS25)  returns 0x00000000 (0000ms, 0744ms total)
T3D70 012:177 JLINK_ReadReg(FPS26)  returns 0x00000000 (0000ms, 0744ms total)
T3D70 012:177 JLINK_ReadReg(FPS27)  returns 0x00000000 (0001ms, 0745ms total)
T3D70 012:178 JLINK_ReadReg(FPS28)  returns 0x00000000 (0000ms, 0745ms total)
T3D70 012:178 JLINK_ReadReg(FPS29)  returns 0x00000000 (0000ms, 0745ms total)
T3D70 012:178 JLINK_ReadReg(FPS30)  returns 0x00000000 (0000ms, 0745ms total)
T3D70 012:178 JLINK_ReadReg(FPS31)  returns 0x00000000 (0000ms, 0745ms total)
T3E7C 012:178 JLINK_ReadMem (0x2000175C, 0x0004 Bytes, ...) -- CPU_ReadMem(4 bytes @ 0x2000175C) - Data: 11 00 01 08  returns 0x00 (0001ms, 0746ms total)
T3E7C 012:179 JLINK_ReadMem (0x20001740, 0x0004 Bytes, ...) -- CPU_ReadMem(4 bytes @ 0x20001740) - Data: 01 00 00 00  returns 0x00 (0001ms, 0747ms total)
T3E7C 012:180 JLINK_ReadMem (0x20001744, 0x0004 Bytes, ...) -- CPU_ReadMem(4 bytes @ 0x20001744) - Data: 0D 00 00 00  returns 0x00 (0001ms, 0748ms total)
T3E7C 012:181 JLINK_ReadMem (0x20001748, 0x0004 Bytes, ...) -- CPU_ReadMem(4 bytes @ 0x20001748) - Data: A5 A5 A5 A5  returns 0x00 (0000ms, 0748ms total)
T3E7C 012:181 JLINK_ReadMem (0x2000174C, 0x0004 Bytes, ...) -- CPU_ReadMem(4 bytes @ 0x2000174C) - Data: A5 A5 A5 A5  returns 0x00 (0001ms, 0749ms total)
T3E7C 012:182 JLINK_ReadMem (0x20001750, 0x0004 Bytes, ...) -- CPU_ReadMem(4 bytes @ 0x20001750) - Data: A5 A5 A5 A5  returns 0x00 (0001ms, 0750ms total)
T3E7C 012:183 JLINK_ReadMem (0x20001754, 0x0004 Bytes, ...) -- CPU_ReadMem(4 bytes @ 0x20001754) - Data: A5 A5 A5 A5  returns 0x00 (0001ms, 0751ms total)
T3E7C 012:184 JLINK_ReadMem (0x20001758, 0x0004 Bytes, ...) -- CPU_ReadMem(4 bytes @ 0x20001758) - Data: A5 A5 A5 A5  returns 0x00 (0000ms, 0751ms total)
T3E7C 012:184 JLINK_ReadMem (0x20001764, 0x0004 Bytes, ...) -- CPU_ReadMem(4 bytes @ 0x20001764) - Data: 11 F7 00 08  returns 0x00 (0001ms, 0752ms total)
T3E7C 012:185 JLINK_ReadMem (0x2000176C, 0x0004 Bytes, ...) -- CPU_ReadMem(4 bytes @ 0x2000176C) - Data: A5 A5 A5 A5  returns 0x00 (0001ms, 0753ms total)
T3E7C 012:186 JLINK_ReadMem (0x00000000, 0x0004 Bytes, ...) -- CPU_ReadMem(4 bytes @ 0x00000000) - Data: 50 64 00 20  returns 0x00 (0001ms, 0754ms total)
T3E7C 012:187 JLINK_ReadMem (0x00000000, 0x0008 Bytes, ...) -- CPU_ReadMem(8 bytes @ 0x00000000) - Data: 50 64 00 20 59 02 00 08  returns 0x00 (0001ms, 0755ms total)
T3E7C 012:198 JLINK_ReadMem (0x20004E84, 0x0020 Bytes, ...) -- CPU_ReadMem(32 bytes @ 0x20004E84) - Data: 00 00 00 00 00 00 00 00 00 00 00 00 00 00 00 00 ...  returns 0x00 (0001ms, 0756ms total)
T3E7C 012:199 JLINK_ReadMem (0x20004E44, 0x0020 Bytes, ...) -- CPU_ReadMem(32 bytes @ 0x20004E44) - Data: 00 00 00 00 00 00 00 00 00 00 00 00 00 00 00 00 ...  returns 0x00 (0001ms, 0757ms total)
T3E7C 012:200 JLINK_ReadMem (0x20004E04, 0x0020 Bytes, ...) -- CPU_ReadMem(32 bytes @ 0x20004E04) - Data: 00 00 00 00 00 00 00 00 00 00 00 00 00 00 00 00 ...  returns 0x00 (0001ms, 0758ms total)
T3E7C 012:201 JLINK_ReadMem (0x20004EC4, 0x0020 Bytes, ...) -- CPU_ReadMem(32 bytes @ 0x20004EC4) - Data: 00 00 00 00 00 00 00 00 00 00 00 00 00 00 00 00 ...  returns 0x00 (0001ms, 0759ms total)
T3E7C 012:202 JLINK_ReadMem (0x20005258, 0x000F Bytes, ...) -- CPU_ReadMem(15 bytes @ 0x20005258) - Data: 00 FC D3 00 3E DF 51 03 7F FF F9 FF F1 FF CD  returns 0x00 (0001ms, 0760ms total)
T3E7C 012:204 JLINK_ReadMem (0x20000210, 0x0004 Bytes, ...) -- CPU_ReadMem(4 bytes @ 0x20000210) - Data: 26 CF 86 00  returns 0x00 (0001ms, 0761ms total)
T3E7C 012:205 JLINK_ReadMem (0x20000214, 0x0004 Bytes, ...) -- CPU_ReadMem(4 bytes @ 0x20000214) - Data: 00 00 00 00  returns 0x00 (0000ms, 0761ms total)
T3E7C 015:867 JLINK_SetResetType(JLINKARM_RESET_TYPE_NORMAL)  returns JLINKARM_RESET_TYPE_NORMAL (0000ms, 0761ms total)
T3E7C 015:867 JLINK_Reset() -- CPU_WriteMem(4 bytes @ 0xE000EDF0) -- CPU_WriteMem(4 bytes @ 0xE000EDFC) -- CPU_WriteMem(4 bytes @ 0xE000ED0C) -- CPU_ReadMem(4 bytes @ 0xE000EDF0) -- CPU_ReadMem(4 bytes @ 0xE000EDF0) -- CPU_WriteMem(4 bytes @ 0xE000EDF0) -- CPU_WriteMem(4 bytes @ 0xE000EDFC) -- CPU is running -- CPU_ReadMem(4 bytes @ 0xE000EDF0) >0x80 JTAG> >0x40 JTAG> >0x30 JTAG> >0x40 JTAG> >0x50 JTAG> >0x40 JTAG> -- CPU_WriteMem(4 bytes @ 0xE000EDFC) -- CPU_WriteMem(4 bytes @ 0xE0001028)
 -- CPU_WriteMem(4 bytes @ 0xE0001038) -- CPU_WriteMem(4 bytes @ 0xE0001048) -- CPU_WriteMem(4 bytes @ 0xE0001058) -- CPU_WriteMem(4 bytes @ 0xE0002000) -- CPU_ReadMem(4 bytes @ 0xE000EDFC) -- CPU_ReadMem(4 bytes @ 0xE0001000) (0026ms, 0787ms total)
T3E7C 015:893 JLINK_ReadReg(R15 (PC))  returns 0x08000258 (0000ms, 0787ms total)
T3E7C 015:893 JLINK_ReadReg(XPSR)  returns 0x01000000 (0000ms, 0787ms total)
T3E7C 015:936 JLINK_ReadMem (0x20004E84, 0x0020 Bytes, ...) -- CPU_ReadMem(32 bytes @ 0x20004E84) - Data: 00 00 00 00 00 00 00 00 00 00 00 00 00 00 00 00 ...  returns 0x00 (0001ms, 0788ms total)
T3E7C 015:937 JLINK_ReadMem (0x20004E44, 0x0020 Bytes, ...) -- CPU_ReadMem(32 bytes @ 0x20004E44) - Data: 00 00 00 00 00 00 00 00 00 00 00 00 00 00 00 00 ...  returns 0x00 (0000ms, 0788ms total)
T3E7C 015:937 JLINK_ReadMem (0x20004E04, 0x0020 Bytes, ...) -- CPU_ReadMem(32 bytes @ 0x20004E04) - Data: 00 00 00 00 00 00 00 00 00 00 00 00 00 00 00 00 ...  returns 0x00 (0001ms, 0789ms total)
T3E7C 015:939 JLINK_ReadMem (0x20004EC4, 0x0020 Bytes, ...) -- CPU_ReadMem(32 bytes @ 0x20004EC4) - Data: 00 00 00 00 00 00 00 00 00 00 00 00 00 00 00 00 ...  returns 0x00 (0000ms, 0789ms total)
T3E7C 015:940 JLINK_ReadMem (0x20005258, 0x000F Bytes, ...) -- CPU_ReadMem(15 bytes @ 0x20005258) - Data: 00 FC D3 00 3E DF 51 03 7F FF F9 FF F1 FF CD  returns 0x00 (0001ms, 0790ms total)
T3E7C 015:941 JLINK_ReadMem (0x20000210, 0x0004 Bytes, ...) -- CPU_ReadMem(4 bytes @ 0x20000210) - Data: 26 CF 86 00  returns 0x00 (0000ms, 0790ms total)
T3E7C 015:942 JLINK_ReadMem (0x20000214, 0x0004 Bytes, ...) -- CPU_ReadMem(4 bytes @ 0x20000214) - Data: 00 00 00 00  returns 0x00 (0001ms, 0791ms total)
T3D70 016:538 JLINK_Go() -- CPU_ReadMem(4 bytes @ 0xE0001000) -- CPU_WriteMem(4 bytes @ 0xE0002008) -- CPU_WriteMem(4 bytes @ 0xE000200C) -- CPU_WriteMem(4 bytes @ 0xE0002010) -- CPU_WriteMem(4 bytes @ 0xE0002014) -- CPU_WriteMem(4 bytes @ 0xE0002018) -- CPU_WriteMem(4 bytes @ 0xE000201C) -- CPU_WriteMem(4 bytes @ 0xE0001004) (0004ms, 0795ms total)
T3D70 016:643 JLINK_IsHalted()  returns FALSE (0000ms, 0795ms total)
T3D70 016:744 JLINK_IsHalted()  returns FALSE (0000ms, 0795ms total)
T3D70 016:845 JLINK_IsHalted()  returns FALSE (0000ms, 0795ms total)
T3D70 016:946 JLINK_IsHalted()  returns FALSE (0000ms, 0795ms total)
T3D70 017:047 JLINK_IsHalted()  returns FALSE (0000ms, 0795ms total)
T3D70 017:148 JLINK_ReadMemU32(0xE0001004, 0x0001 Items, ...) -- CPU is running -- CPU_ReadMem(4 bytes @ 0xE0001004) - Data: 99 AB 08 06  returns 0x01 (0000ms, 0795ms total)
T3E7C 017:148 JLINK_ReadMem (0x20004E84, 0x0020 Bytes, ...) -- CPU is running -- CPU_ReadMem(32 bytes @ 0x20004E84) - Data: 00 00 00 00 00 00 00 00 00 00 00 00 00 00 00 00 ...  returns 0x00 (0001ms, 0796ms total)
T3E7C 017:149 JLINK_ReadMem (0x20004E44, 0x0020 Bytes, ...) -- CPU is running -- CPU_ReadMem(32 bytes @ 0x20004E44) - Data: 00 00 00 00 00 00 00 00 00 00 00 00 00 00 00 00 ...  returns 0x00 (0002ms, 0798ms total)
T3E7C 017:151 JLINK_ReadMem (0x20004E04, 0x0020 Bytes, ...) -- CPU is running -- CPU_ReadMem(32 bytes @ 0x20004E04) - Data: 68 00 00 00 00 00 00 00 00 00 00 00 00 00 00 00 ...  returns 0x00 (0001ms, 0799ms total)
T3E7C 017:152 JLINK_ReadMem (0x20004EC4, 0x0020 Bytes, ...) -- CPU is running -- CPU_ReadMem(32 bytes @ 0x20004EC4) - Data: 00 00 00 00 00 00 00 00 00 00 00 00 00 00 00 00 ...  returns 0x00 (0001ms, 0800ms total)
T3E7C 017:153 JLINK_ReadMem (0x20005258, 0x000F Bytes, ...) -- CPU is running -- CPU_ReadMem(15 bytes @ 0x20005258) - Data: 00 FC D8 00 4C DF 3A 03 6F FF FB FF F3 FF CA  returns 0x00 (0001ms, 0801ms total)
T3E7C 017:154 JLINK_ReadMem (0x20000210, 0x0004 Bytes, ...) -- CPU is running -- CPU_ReadMem(4 bytes @ 0x20000210) - Data: 5C FF 86 00  returns 0x00 (0001ms, 0802ms total)
T3E7C 017:155 JLINK_ReadMem (0x20000214, 0x0004 Bytes, ...) -- CPU is running -- CPU_ReadMem(4 bytes @ 0x20000214) - Data: CA 45 86 00  returns 0x00 (0001ms, 0803ms total)
T3D70 017:156 JLINK_IsHalted()  returns FALSE (0000ms, 0803ms total)
T3D70 017:257 JLINK_IsHalted()  returns FALSE (0000ms, 0803ms total)
T3D70 017:357 JLINK_IsHalted()  returns FALSE (0000ms, 0803ms total)
T3D70 017:458 JLINK_IsHalted()  returns FALSE (0001ms, 0804ms total)
T3D70 017:560 JLINK_IsHalted()  returns FALSE (0000ms, 0803ms total)
T3D70 017:661 JLINK_ReadMemU32(0xE0001004, 0x0001 Items, ...) -- CPU is running -- CPU_ReadMem(4 bytes @ 0xE0001004) - Data: F1 35 2A 0B  returns 0x01 (0000ms, 0803ms total)
T3E7C 017:661 JLINK_ReadMem (0x20004E84, 0x0020 Bytes, ...) -- CPU is running -- CPU_ReadMem(32 bytes @ 0x20004E84) - Data: 00 00 00 00 00 00 00 00 00 00 00 00 00 00 00 00 ...  returns 0x00 (0001ms, 0804ms total)
T3E7C 017:662 JLINK_ReadMem (0x20004E44, 0x0020 Bytes, ...) -- CPU is running -- CPU_ReadMem(32 bytes @ 0x20004E44) - Data: 00 00 00 00 00 00 00 00 00 00 00 00 00 00 00 00 ...  returns 0x00 (0001ms, 0805ms total)
T3E7C 017:663 JLINK_ReadMem (0x20004E04, 0x0020 Bytes, ...) -- CPU is running -- CPU_ReadMem(32 bytes @ 0x20004E04) - Data: 68 00 00 00 00 00 00 00 00 00 00 00 00 00 00 00 ...  returns 0x00 (0000ms, 0805ms total)
T3E7C 017:664 JLINK_ReadMem (0x20004EC4, 0x0020 Bytes, ...) -- CPU is running -- CPU_ReadMem(32 bytes @ 0x20004EC4) - Data: 00 00 00 00 00 00 00 00 00 00 00 00 00 00 00 00 ...  returns 0x00 (0001ms, 0806ms total)
T3E7C 017:665 JLINK_ReadMem (0x20005258, 0x000F Bytes, ...) -- CPU is running -- CPU_ReadMem(15 bytes @ 0x20005258) - Data: 00 FC E6 00 45 DF 6B 03 6F FF F8 FF F4 FF CD  returns 0x00 (0001ms, 0807ms total)
T3E7C 017:666 JLINK_ReadMem (0x20000210, 0x0004 Bytes, ...) -- CPU is running -- CPU_ReadMem(4 bytes @ 0x20000210) - Data: 24 0F 87 00  returns 0x00 (0001ms, 0808ms total)
T3E7C 017:667 JLINK_ReadMem (0x20000214, 0x0004 Bytes, ...) -- CPU is running -- CPU_ReadMem(4 bytes @ 0x20000214) - Data: 30 41 86 00  returns 0x00 (0001ms, 0809ms total)
T3D70 017:669 JLINK_IsHalted()  returns FALSE (0000ms, 0809ms total)
T3D70 017:770 JLINK_IsHalted()  returns FALSE (0000ms, 0809ms total)
T3D70 017:871 JLINK_IsHalted()  returns FALSE (0000ms, 0809ms total)
T3D70 017:973 JLINK_IsHalted()  returns FALSE (0000ms, 0809ms total)
T3D70 018:074 JLINK_IsHalted()  returns FALSE (0000ms, 0809ms total)
T3D70 018:174 JLINK_IsHalted()  returns FALSE (0000ms, 0809ms total)
T3D70 018:275 JLINK_ReadMemU32(0xE0001004, 0x0001 Items, ...) -- CPU is running -- CPU_ReadMem(4 bytes @ 0xE0001004) - Data: 9D E8 51 11  returns 0x01 (0000ms, 0809ms total)
T3E7C 018:276 JLINK_ReadMem (0x20004E84, 0x0020 Bytes, ...) -- CPU is running -- CPU_ReadMem(32 bytes @ 0x20004E84) - Data: 00 00 00 00 00 00 00 00 00 00 00 00 00 00 00 00 ...  returns 0x00 (0002ms, 0811ms total)
T3E7C 018:278 JLINK_ReadMem (0x20004E44, 0x0020 Bytes, ...) -- CPU is running -- CPU_ReadMem(32 bytes @ 0x20004E44) - Data: 00 00 00 00 00 00 00 00 00 00 00 00 00 00 00 00 ...  returns 0x00 (0001ms, 0812ms total)
T3E7C 018:279 JLINK_ReadMem (0x20004E04, 0x0020 Bytes, ...) -- CPU is running -- CPU_ReadMem(32 bytes @ 0x20004E04) - Data: 68 00 00 00 00 00 00 00 00 00 00 00 00 00 00 00 ...  returns 0x00 (0000ms, 0812ms total)
T3E7C 018:280 JLINK_ReadMem (0x20004EC4, 0x0020 Bytes, ...) -- CPU is running -- CPU_ReadMem(32 bytes @ 0x20004EC4) - Data: 00 00 00 00 00 00 00 00 00 00 00 00 00 00 00 00 ...  returns 0x00 (0001ms, 0813ms total)
T3E7C 018:281 JLINK_ReadMem (0x20005258, 0x000F Bytes, ...) -- CPU is running -- CPU_ReadMem(15 bytes @ 0x20005258) - Data: 00 FC CD 00 45 DF 67 03 6E FF FB FF F0 FF CD  returns 0x00 (0001ms, 0814ms total)
T3E7C 018:283 JLINK_ReadMem (0x20000210, 0x0004 Bytes, ...) -- CPU is running -- CPU_ReadMem(4 bytes @ 0x20000210) - Data: C6 16 87 00  returns 0x00 (0000ms, 0814ms total)
T3E7C 018:284 JLINK_ReadMem (0x20000214, 0x0004 Bytes, ...) -- CPU is running -- CPU_ReadMem(4 bytes @ 0x20000214) - Data: 38 3E 86 00  returns 0x00 (0001ms, 0815ms total)
T3D70 018:285 JLINK_IsHalted()  returns FALSE (0001ms, 0816ms total)
T3D70 018:386 JLINK_IsHalted()  returns FALSE (0000ms, 0815ms total)
T3D70 018:487 JLINK_IsHalted()  returns FALSE (0001ms, 0816ms total)
T3E7C 018:586 JLINK_ReadMem (0x20005268, 0x0004 Bytes, ...) -- CPU is running -- CPU_ReadMem(4 bytes @ 0x20005268) - Data: 00 D3 C7 47  returns 0x00 (0001ms, 0816ms total)
T3E7C 018:587 JLINK_ReadMem (0x2000526C, 0x0004 Bytes, ...) -- CPU is running -- CPU_ReadMem(4 bytes @ 0x2000526C) - Data: 00 00 6F 45  returns 0x00 (0001ms, 0817ms total)
T3E7C 018:588 JLINK_ReadMem (0x20005270, 0x0004 Bytes, ...) -- CPU is running -- CPU_ReadMem(4 bytes @ 0x20005270) - Data: 00 00 00 00  returns 0x00 (0001ms, 0818ms total)
T3E7C 018:589 JLINK_ReadMem (0x20005274, 0x0004 Bytes, ...) -- CPU is running -- CPU_ReadMem(4 bytes @ 0x20005274) - Data: 00 00 00 00  returns 0x00 (0001ms, 0819ms total)
T3D70 018:590 JLINK_IsHalted()  returns FALSE (0000ms, 0818ms total)
T3E7C 018:590 JLINK_ReadMem (0x20005278, 0x0004 Bytes, ...) -- CPU is running -- CPU_ReadMem(4 bytes @ 0x20005278) - Data: 00 00 00 00  returns 0x00 (0001ms, 0819ms total)
T3E7C 018:591 JLINK_ReadMem (0x2000527C, 0x0001 Bytes, ...) -- CPU is running -- CPU_ReadMem(1 bytes @ 0x2000527C) - Data: 00  returns 0x00 (0001ms, 0820ms total)
T3E7C 018:592 JLINK_ReadMem (0x2000527D, 0x0001 Bytes, ...) -- CPU is running -- CPU_ReadMem(1 bytes @ 0x2000527D) - Data: 00  returns 0x00 (0001ms, 0821ms total)
T3E7C 018:593 JLINK_ReadMem (0x20005268, 0x0004 Bytes, ...) -- CPU is running -- CPU_ReadMem(4 bytes @ 0x20005268) - Data: 00 D3 C7 47  returns 0x00 (0002ms, 0823ms total)
T3E7C 018:595 JLINK_ReadMem (0x2000526C, 0x0004 Bytes, ...) -- CPU is running -- CPU_ReadMem(4 bytes @ 0x2000526C) - Data: 00 00 6F 45  returns 0x00 (0001ms, 0824ms total)
